(1606235218.896883) can0 09FD0202#520000AEADFAFFFF
(1606235218.996873) can0 09FD0202#530000EBC0FAFFFF
(1606235219.021830) can0 1DF01102#60EAFCFFFFFFFFFF
(1606235219.096789) can0 09FD0202#540000CFD3FAFFFF
(1606235219.196820) can0 09FD0202#5500003DE6FAFFFF
(1606235219.296844) can0 09FD0202#5600000503FAFFFF
(1606235219.396834) can0 09FD0202#5700004515FAFFFF
(1606235219.521802) can0 09FD0202#580000A127FAFFFF
(1606235219.621867) can0 09FD0202#590000F639FAFFFF
(1606235219.721842) can0 09FD0202#5A0000564CFAFFFF
(1606235219.821808) can0 09FD0202#5B0000B45EFAFFFF
(1606235219.922021) can0 09FD0202#5C0000F470FAFFFF
(1606235220.021714) can0 09FD0202#5D0200F082FAFFFF
(1606235220.121977) can0 09FD0202#5E0500A194FAFFFF
(1606235220.221759) can0 09FD0202#5F0700DEA5FAFFFF
(1606235220.346811) can0 09FD0202#600A00AFB6FAFFFF
(1606235220.446809) can0 09FD0202#610C0011C7FAFFFF
(1606235220.546770) can0 09FD0202#620F0009D7FAFFFF
(1606235220.646748) can0 09FD0202#631200A7E6FAFFFF
(1606235220.746870) can0 09FD0202#6430008B00FAFFFF
(1606235220.846716) can0 09FD0202#654B00B00FFAFFFF
(1606235220.946713) can0 09FD0202#666600C61EFAFFFF
(1606235221.046734) can0 09FD0202#678100E02DFAFFFF
(1606235221.171882) can0 09FD0202#68A600103DFAFFFF
(1606235221.271778) can0 09FD0202#69CA00524CFAFFFF
(1606235221.371777) can0 09FD0202#6AEE00A25BFAFFFF
(1606235221.471848) can0 09FD0202#6B1601F26AFAFFFF
(1606235221.571705) can0 09FD0202#6C22012E7AFAFFFF
(1606235221.671759) can0 09FD0202#6D2F012F89FAFFFF
(1606235221.771763) can0 09FD0202#6E3B01F097FAFFFF
(1606235221.896728) can0 09FD0202#6F470154A6FAFFFF
(1606235221.996697) can0 09FD0202#70490139B4FAFFFF
(1606235222.096740) can0 09FD0202#714C01B2C1FAFFFF
(1606235222.196678) can0 09FD0202#724E01B1CEFAFFFF
(1606235222.296748) can0 09FD0202#73480140DBFAFFFF
(1606235222.396628) can0 09FD0202#74430172E7FAFFFF
(1606235222.496681) can0 09FD0202#753C014FF3FAFFFF
(1606235222.596741) can0 09FD0202#7636018409FAFFFF
(1606235222.721632) can0 09FD0202#772D01FD14FAFFFF
(1606235222.821683) can0 09FD0202#7824015E20FAFFFF
(1606235222.921647) can0 09FD0202#791B01BF2BFAFFFF
(1606235223.021688) can0 09FD0202#7A12013E37FAFFFF
(1606235223.121631) can0 09FD0202#7B0E01DC42FAFFFF
(1606235223.221690) can0 09FD0202#7C0A01AD4EFAFFFF
(1606235223.321883) can0 09FD0202#7D0201A75AFAFFFF
(1606235223.421686) can0 09FD0202#7EFB00CC66FAFFFF
(1606235223.546694) can0 09FD0202#7FF6000573FAFFFF
(1606235223.646699) can0 09FD0202#80F3004C7FFAFFFF
(1606235223.746761) can0 09FD0202#81EF00828BFAFFFF
(1606235223.846764) can0 09FD0202#82EB008497FAFFFF
(1606235223.946675) can0 09FD0202#83E3003AA3FAFFFF
(1606235224.046799) can0 09FD0202#84DC0094AEFAFFFF
(1606235224.146739) can0 09FD0202#85D8007DB9FAFFFF
(1606235224.246631) can0 09FD0202#86D300F2C3FAFFFF
(1606235224.371678) can0 09FD0202#87CF00EDCDFAFFFF
(1606235224.471833) can0 09FD0202#88CB006CD7FAFFFF
(1606235224.571723) can0 09FD0202#89C80064E0FAFFFF
(1606235224.671630) can0 09FD0202#8AC300DFE8FAFFFF
(1606235224.771882) can0 09FD0202#8BC200E1F0FAFFFF
(1606235224.871663) can0 09FD0202#8CC1001B03FAFFFF
(1606235224.971856) can0 09FD0202#8DC0007E0AFAFFFF
(1606235225.071815) can0 09FD0202#8ECD00A111FAFFFF
(1606235225.196601) can0 09FD0202#8FD9009718FAFFFF
(1606235225.296902) can0 09FD0202#90E5006F1FFAFFFF
(1606235225.396880) can0 09FD0202#91F1004426FAFFFF
(1606235225.496635) can0 09FD0202#9202012C2DFAFFFF
(1606235225.596634) can0 09FD0202#9313013734FAFFFF
(1606235225.696890) can0 09FD0202#942401823BFAFFFF
(1606235225.796573) can0 09FD0202#953B011443FAFFFF
(1606235225.896571) can0 09FD0202#964501E94AFAFFFF
(1606235226.021628) can0 09FD0202#974F01FD52FAFFFF
(1606235226.121738) can0 09FD0202#985901645BFAFFFF
(1606235226.221758) can0 09FD0202#995E010C64FAFFFF
(1606235226.321823) can0 09FD0202#9A5F01F96CFAFFFF
(1606235226.421644) can0 09FD0202#9B60012876FAFFFF
(1606235226.521591) can0 09FD0202#9C6101827FFAFFFF
(1606235226.621640) can0 09FD0202#9D5901F088FAFFFF
(1606235226.746658) can0 09FD0202#9E51015E92FAFFFF
(1606235226.846708) can0 09FD0202#9F4801AE9BFAFFFF
(1606235226.946583) can0 09FD0202#A04701C1A4FAFFFF
(1606235227.046561) can0 09FD0202#A14A0182ADFAFFFF
(1606235227.146638) can0 09FD0202#A24D01E1B5FAFFFF
(1606235227.246661) can0 09FD0202#A35501C5BDFAFFFF
(1606235227.346537) can0 09FD0202#A45C0122C5FAFFFF
(1606235227.446640) can0 09FD0202#A56701E9CBFAFFFF
(1606235227.571519) can0 09FD0202#A6780124D2FAFFFF
(1606235227.671737) can0 09FD0202#A78901C9D7FAFFFF
(1606235227.771553) can0 09FD0202#A89301D3DCFAFFFF
(1606235227.871557) can0 09FD0202#A99E0143E1FAFFFF
(1606235227.971536) can0 09FD0202#AAAB0118E5FAFFFF
(1606235228.071548) can0 09FD0202#ABB40155E8FAFFFF
(1606235228.171722) can0 09FD0202#ACBD01FAEAFAFFFF
(1606235228.271499) can0 09FD0202#ADC20110EDFAFFFF
(1606235228.396848) can0 09FD0202#AEC20192EEFAFFFF
(1606235228.496479) can0 09FD0202#AFC2018BEFFAFFFF
(1606235228.596580) can0 09FD0202#B0B90102F0FAFFFF
(1606235228.696599) can0 09FD0202#B1B001F6EFFAFFFF
(1606235228.796685) can0 09FD0202#B2A50171EFFAFFFF
(1606235228.896567) can0 09FD0202#B3980171EEFAFFFF
(1606235228.996729) can0 09FD0202#B48B01F1ECFAFFFF
(1606235229.096469) can0 09FD0202#B58101F0EAFAFFFF
(1606235229.221658) can0 09FD0202#B6790173E8FAFFFF
(1606235229.321635) can0 09FD0202#B771016CE5FAFFFF
(1606235229.421490) can0 09FD0202#B87001E2E1FAFFFF
(1606235229.521652) can0 09FD0202#B97201D9DDFAFFFF
(1606235229.621527) can0 09FD0202#BA740153D9FAFFFF
(1606235229.721493) can0 09FD0202#BB790164D4FAFFFF
(1606235229.821478) can0 09FD0202#BC7D0119CFFAFFFF
(1606235229.921500) can0 09FD0202#BD820172C9FAFFFF
(1606235230.046459) can0 09FD0202#BE85016CC3FAFFFF
(1606235230.146500) can0 09FD0202#BF8C0105BDFAFFFF
(1606235230.246534) can0 09FD0202#C092015DB6FAFFFF
(1606235230.346457) can0 09FD0202#C197018FAFFAFFFF
(1606235230.446520) can0 09FD0202#C29C01A2A8FAFFFF
(1606235230.546460) can0 09FD0202#C3A101A7A1FAFFFF
(1606235230.646467) can0 09FD0202#C4A101BB9AFAFFFF
(1606235230.771464) can0 09FD0202#C5A101FA93FAFFFF
(1606235230.871567) can0 09FD0202#C6A0017E8DFAFFFF
(1606235230.971549) can0 09FD0202#C797015387FAFFFF
(1606235231.071681) can0 09FD0202#C88E017481FAFFFF
(1606235231.171527) can0 09FD0202#C98301D47BFAFFFF
(1606235231.271422) can0 09FD0202#CA79019676FAFFFF
(1606235231.371497) can0 09FD0202#CB6A01D571FAFFFF
(1606235231.471434) can0 09FD0202#CC6001A06DFAFFFF
(1606235231.596751) can0 09FD0202#CD5701F469FAFFFF
(1606235231.696614) can0 09FD0202#CE4D01D666FAFFFF
(1606235231.796503) can0 09FD0202#CF44014F64FAFFFF
(1606235231.896614) can0 09FD0202#D03A016D62FAFFFF
(1606235231.996416) can0 09FD0202#D131013F61FAFFFF
(1606235232.096579) can0 09FD0202#D22801C160FAFFFF
(1606235232.196393) can0 09FD0202#D32401E660FAFFFF
(1606235232.296372) can0 09FD0202#D41A01A861FAFFFF
(1606235232.421744) can0 09FD0202#D512010563FAFFFF
(1606235232.521467) can0 09FD0202#D608010465FAFFFF
(1606235232.621661) can0 09FD0202#D70401A467FAFFFF
(1606235232.721670) can0 09FD0202#D8FF00D16AFAFFFF
(1606235232.821412) can0 09FD0202#D9FB009C6EFAFFFF
(1606235232.921560) can0 09FD0202#DAF2002173FAFFFF
(1606235233.021353) can0 09FD0202#DBEA004E78FAFFFF
(1606235233.121457) can0 09FD0202#DCE600ED7DFAFFFF
(1606235233.246340) can0 09FD0202#DDE300DC83FAFFFF
(1606235233.346424) can0 09FD0202#DEDF00208AFAFFFF
(1606235233.446426) can0 09FD0202#DFDC009D90FAFFFF
(1606235233.546368) can0 09FD0202#E0D8002E97FAFFFF
(1606235233.646407) can0 09FD0202#E1D100A69DFAFFFF
(1606235233.746320) can0 09FD0202#E2CD00F0A3FAFFFF
(1606235233.846351) can0 09FD0202#E3C900FAA9FAFFFF
(1606235233.946346) can0 09FD0202#E4C600C6AFFAFFFF
(1606235234.071372) can0 09FD0202#E5C1003DB5FAFFFF
(1606235234.171351) can0 09FD0202#E6BE0050BAFAFFFF
(1606235234.271360) can0 09FD0202#E7BA00E5BEFAFFFF
(1606235234.371352) can0 09FD0202#E8B600E9C2FAFFFF
(1606235234.471445) can0 09FD0202#E9B40063C6FAFFFF
(1606235234.571382) can0 09FD0202#EAB0005EC9FAFFFF
(1606235234.671408) can0 09FD0202#EBAD00CBCBFAFFFF
(1606235234.771506) can0 09FD0202#ECAA00A9CDFAFFFF
(1606235234.896558) can0 09FD0202#EDA700ECCEFAFFFF
(1606235234.996634) can0 09FD0202#EEA40089CFFAFFFF
(1606235235.096457) can0 09FD0202#EFA10090CFFAFFFF
(1606235235.196627) can0 09FD0202#F09E0008CFFAFFFF
(1606235235.296459) can0 09FD0202#F19E00F4CDFAFFFF
(1606235235.396283) can0 09FD0202#F29E0061CCFAFFFF
(1606235235.496318) can0 09FD0202#F39E0052CAFAFFFF
(1606235235.621447) can0 09FD0202#F49B00C5C7FAFFFF
(1606235235.721315) can0 09FD0202#F59800C5C4FAFFFF
(1606235235.821397) can0 09FD0202#F6950060C1FAFFFF
(1606235235.921374) can0 09FD0202#F79200A4BDFAFFFF
(1606235236.021618) can0 09FD0202#F88E009CB9FAFFFF
(1606235236.121599) can0 09FD0202#F98B0059B5FAFFFF
(1606235236.221406) can0 09FD0202#FA8800EEB0FAFFFF
(1606235236.321553) can0 09FD0202#0085006DACFAFFFF
(1606235236.446305) can0 09FD0202#018500EBA7FAFFFF
(1606235236.546304) can0 09FD0202#02850079A3FAFFFF
(1606235236.646298) can0 09FD0202#038500269FFAFFFF
(1606235236.746303) can0 09FD0202#048500079BFAFFFF
(1606235236.846443) can0 09FD0202#0585002997FAFFFF
(1606235236.946258) can0 09FD0202#0685009893FAFFFF
(1606235237.046383) can0 09FD0202#0782006090FAFFFF
(1606235237.146336) can0 09FD0202#087F00908DFAFFFF
(1606235237.271494) can0 09FD0202#097B002D8BFAFFFF
(1606235237.371515) can0 09FD0202#0A78004089FAFFFF
(1606235237.471341) can0 09FD0202#0B7500C987FAFFFF
(1606235237.571470) can0 09FD0202#0C7300CC86FAFFFF
(1606235237.671375) can0 09FD0202#0D70004886FAFFFF
(1606235237.771307) can0 09FD0202#0E6D003886FAFFFF
(1606235237.871254) can0 09FD0202#0F6D009386FAFFFF
(1606235237.971453) can0 09FD0202#106D005A87FAFFFF
(1606235238.096351) can0 09FD0202#116D008788FAFFFF
(1606235238.196279) can0 09FD0202#126D00148AFAFFFF
(1606235238.296286) can0 09FD0202#136D00F98BFAFFFF
(1606235238.396495) can0 09FD0202#146D00328EFAFFFF
(1606235238.496202) can0 09FD0202#156D00B890FAFFFF
(1606235238.596419) can0 09FD0202#166D008093FAFFFF
(1606235238.696255) can0 09FD0202#176D007A96FAFFFF
(1606235238.796317) can0 09FD0202#186D009C99FAFFFF
(1606235238.921477) can0 09FD0202#196D00D29CFAFFFF
(1606235239.021513) can0 09FD0202#1A6D0017A0FAFFFF
(1606235239.121231) can0 09FD0202#1B6D005BA3FAFFFF
(1606235239.221516) can0 09FD0202#1C6D0091A6FAFFFF
(1606235239.321235) can0 09FD0202#1D6D00ACA9FAFFFF
(1606235239.421331) can0 09FD0202#1E6D009CACFAFFFF
(1606235239.521250) can0 09FD0202#1F670059AFFAFFFF
(1606235239.621300) can0 09FD0202#206100D6B1FAFFFF
(1606235239.746252) can0 09FD0202#215C000AB4FAFFFF
(1606235239.846248) can0 09FD0202#225600EAB5FAFFFF
(1606235239.946197) can0 09FD0202#2350006EB7FAFFFF
(1606235240.046425) can0 09FD0202#244B009DB8FAFFFF
(1606235240.146251) can0 09FD0202#2544006FB9FAFFFF
(1606235240.246446) can0 09FD0202#263F00EEB9FAFFFF
(1606235240.346245) can0 09FD0202#273F001ABAFAFFFF
(1606235240.446465) can0 09FD0202#283F00F0B9FAFFFF
(1606235240.571204) can0 09FD0202#293F0079B9FAFFFF
(1606235240.671192) can0 09FD0202#2A3F00B6B8FAFFFF
(1606235240.771165) can0 09FD0202#2B3F00ABB7FAFFFF
(1606235240.871222) can0 09FD0202#2C3F0061B6FAFFFF
(1606235240.971283) can0 09FD0202#2D3F00DCB4FAFFFF
(1606235241.071241) can0 09FD0202#2E3F0027B3FAFFFF
(1606235241.171272) can0 09FD0202#2F3F004BB1FAFFFF
(1606235241.271262) can0 09FD0202#303F0051AFFAFFFF
(1606235241.396217) can0 09FD0202#313F003EADFAFFFF
(1606235241.496374) can0 09FD0202#323F001CABFAFFFF
(1606235241.596214) can0 09FD0202#333F00F3A8FAFFFF
(1606235241.696169) can0 09FD0202#343F00CBA6FAFFFF
(1606235241.796377) can0 09FD0202#353F00B1A4FAFFFF
(1606235241.896417) can0 09FD0202#363F00B0A2FAFFFF
(1606235241.996165) can0 09FD0202#373F00D0A0FAFFFF
(1606235242.096139) can0 09FD0202#383F00139FFAFFFF
(1606235242.221406) can0 09FD0202#393F008C9DFAFFFF
(1606235242.321132) can0 09FD0202#3A3F004D9CFAFFFF
(1606235242.421318) can0 09FD0202#3B3F003E9BFAFFFF
(1606235242.521189) can0 09FD0202#3C3F005F9AFAFFFF
(1606235242.621408) can0 09FD0202#3D4000C299FAFFFF
(1606235242.721120) can0 09FD0202#3E40006C99FAFFFF
(1606235242.821092) can0 09FD0202#3F40005099FAFFFF
(1606235242.921152) can0 09FD0202#4040006499FAFFFF
(1606235243.046138) can0 09FD0202#414000A499FAFFFF
(1606235243.146090) can0 09FD0202#424000099AFAFFFF
(1606235243.246145) can0 09FD0202#434000A09AFAFFFF
(1606235243.346086) can0 09FD0202#444000689BFAFFFF
(1606235243.446038) can0 09FD0202#454000499CFAFFFF
(1606235243.546103) can0 09FD0202#464000339DFAFFFF
(1606235243.646058) can0 09FD0202#474000369EFAFFFF
(1606235243.746066) can0 09FD0202#4838004F9FFAFFFF
(1606235243.871050) can0 09FD0202#49300074A0FAFFFF
(1606235243.971051) can0 09FD0202#4A28009BA1FAFFFF
(1606235244.071068) can0 09FD0202#4B2000C7A2FAFFFF
(1606235244.171106) can0 09FD0202#4C1800F5A3FAFFFF
(1606235244.271052) can0 09FD0202#4D18001CA5FAFFFF
(1606235244.371105) can0 09FD0202#4E180031A6FAFFFF
(1606235244.471121) can0 09FD0202#4F180035A7FAFFFF
(1606235244.596129) can0 09FD0202#50200021A8FAFFFF
(1606235244.696085) can0 09FD0202#512800EFA8FAFFFF
(1606235244.796019) can0 09FD0202#5230009FA9FAFFFF
(1606235244.896093) can0 09FD0202#5338002DAAFAFFFF
(1606235244.996152) can0 09FD0202#544000AEAAFAFFFF
(1606235245.096149) can0 09FD0202#55400026ABFAFFFF
(1606235245.196315) can0 09FD0202#5640008FABFAFFFF
(1606235245.296121) can0 09FD0202#574000E4ABFAFFFF
(1606235245.421076) can0 09FD0202#58400023ACFAFFFF
(1606235245.521068) can0 09FD0202#59400056ACFAFFFF
(1606235245.621331) can0 09FD0202#5A400072ACFAFFFF
(1606235245.721160) can0 09FD0202#5B380082ACFAFFFF
(1606235245.821069) can0 09FD0202#5C300087ACFAFFFF
(1606235245.921188) can0 09FD0202#5D28007BACFAFFFF
(1606235246.021142) can0 09FD0202#5E200069ACFAFFFF
(1606235246.120993) can0 09FD0202#5F180059ACFAFFFF
(1606235246.246232) can0 09FD0202#600F0044ACFAFFFF
(1606235246.345995) can0 09FD0202#61070033ACFAFFFF
(1606235246.446089) can0 09FD0202#6200002CACFAFFFF
(1606235246.546040) can0 09FD0202#6300003AACFAFFFF
(1606235246.646003) can0 09FD0202#64040067ACFAFFFF
(1606235246.746050) can0 09FD0202#650900A8ACFAFFFF
(1606235246.846018) can0 09FD0202#660E00F0ACFAFFFF
(1606235246.946053) can0 09FD0202#67130049ADFAFFFF
(1606235247.071204) can0 09FD0202#681700C1ADFAFFFF
(1606235247.171053) can0 09FD0202#691C004EAEFAFFFF
(1606235247.270987) can0 09FD0202#6A2100EFAEFAFFFF
(1606235247.370944) can0 09FD0202#6B26008EAFFAFFFF
(1606235247.471119) can0 09FD0202#6C260029B0FAFFFF
(1606235247.571186) can0 09FD0202#6D2600BFB0FAFFFF
(1606235247.671155) can0 09FD0202#6E26000AB1FAFFFF
(1606235247.770943) can0 09FD0202#6F2600F7B0FAFFFF
(1606235247.896007) can0 09FD0202#702600CFB0FAFFFF
(1606235247.996221) can0 09FD0202#712600B6B0FAFFFF
(1606235248.095919) can0 09FD0202#7221006DB0FAFFFF
(1606235248.196194) can0 09FD0202#731C0051B0FAFFFF
(1606235248.296003) can0 09FD0202#741C0051B0FAFFFF
(1606235248.396011) can0 09FD0202#751C0068B0FAFFFF
(1606235248.495953) can0 09FD0202#761C008EB0FAFFFF
(1606235248.596013) can0 09FD0202#771C0099B0FAFFFF
(1606235248.720977) can0 09FD0202#781C00DDB0FAFFFF
(1606235248.820964) can0 09FD0202#791C003BB1FAFFFF
(1606235248.920940) can0 09FD0202#7A2100B9B1FAFFFF
(1606235249.021238) can0 09FD0202#7B260066B2FAFFFF
(1606235249.120946) can0 09FD0202#7C260043B3FAFFFF
(1606235249.221240) can0 09FD0202#7D26003FB4FAFFFF
(1606235249.321002) can0 09FD0202#7E26007CB5FAFFFF
(1606235249.421218) can0 09FD0202#7F260042B7FAFFFF
(1606235249.546100) can0 09FD0202#8026000DB9FAFFFF
(1606235249.646060) can0 09FD0202#812900A6BBFAFFFF
(1606235249.745982) can0 09FD0202#822D00FEBDFAFFFF
(1606235249.845967) can0 09FD0202#833000C1BFFAFFFF
(1606235249.945930) can0 09FD0202#8433005FC0FAFFFF
(1606235250.045942) can0 09FD0202#85370053C0FAFFFF
(1606235250.145885) can0 09FD0202#863A0044C0FAFFFF
(1606235250.245898) can0 09FD0202#873E000FC0FAFFFF
(1606235250.370938) can0 09FD0202#884100D0BFFAFFFF
(1606235250.470950) can0 09FD0202#894100AABFFAFFFF
(1606235250.570946) can0 09FD0202#8A410064BFFAFFFF
(1606235250.670919) can0 09FD0202#8B410020BFFAFFFF
(1606235250.770928) can0 09FD0202#8C4100F3BEFAFFFF
(1606235250.870930) can0 09FD0202#8D410088BEFAFFFF
(1606235250.970959) can0 09FD0202#8E4100F7BDFAFFFF
(1606235251.071089) can0 09FD0202#8F410036BDFAFFFF
(1606235251.196135) can0 09FD0202#904100D7BCFAFFFF
(1606235251.295895) can0 09FD0202#9141001BBDFAFFFF
(1606235251.396124) can0 09FD0202#924B00D6BCFAFFFF
(1606235251.495926) can0 09FD0202#9354009ABCFAFFFF
(1606235251.595893) can0 09FD0202#945D0029BCFAFFFF
(1606235251.695856) can0 09FD0202#956600C9BBFAFFFF
(1606235251.795898) can0 09FD0202#967000AFBBFAFFFF
